CITIFILE A.01.01
#Momentum: B.10.24.175 (*) 2012.08-HF4 May  3 2013 
#Momentum Date and Time: Sat Oct 18 15:56:36 2014

NAME Momentum.SP

#  mode: MW    project: proj    reference: S_50

CONSTANT NBR_OF_PORTS 1

CONSTANT NORMALIZATION 2.757416088

VAR freq MAG 26

DATA S[1,1] RI
DATA PORTZ[1] RI

VAR_LIST_BEGIN
	 500000000
	 605555555.5
	 658333333.3
	 684722222.1
	 697916666.5
	 711111111
	 717708333.3
	 724305555.5
	 737499999.9
	 763888888.8
	 816666666.5
	 922222222
	 1133333333
	 1238888889
	 1291666667
	 1318055556
	 1331250000
	 1344444444
	 1370833333
	 1397222222
	 1450000000
	 1608333334
	 1766666667
	 1925000001
	 2083333334
	 2400000000
VAR_LIST_END

BEGIN
	 0.916560616,	-0.612687086
	 0.713219844,	-1.07767391
	 0.200246739,	-1.63024831
	-0.672535009,	-1.96568346
	-1.51877522,	-1.86672131
	-2.48918165,	-1.06424266
	-2.73850288,	-0.322405779
	-2.6519395,	 0.485557171
	-1.71881375,	 1.5560516
	-0.0823257982,	 1.57047861
	 0.750596312,	 0.780277874
	 0.958555906,	 0.146679799
	 0.939237275,	-0.47373625
	 0.716861539,	-1.04972955
	-0.146402491,	-1.77476118
	-1.97554788,	-1.38969285
	-2.43189545,	 0.237077265
	-1.39042973,	 1.42380468
	 0.224060084,	 1.22121113
	 0.685132044,	 0.72190667
	 0.894204073,	 0.152247802
	 0.391356661,	-1.05690224
	 0.516677917,	 0.781544116
	 0.875291707,	 0.148065298
	 0.873133287,	-0.136201269
	 0.664690898,	-0.427440006
END
BEGIN
	 50 ,	 0 
	 50 ,	 0 
	 50 ,	 0 
	 50 ,	 0 
	 50 ,	 0 
	 50 ,	 0 
	 50 ,	 0 
	 50 ,	 0 
	 50 ,	 0 
	 50 ,	 0 
	 50 ,	 0 
	 50 ,	 0 
	 50 ,	 0 
	 50 ,	 0 
	 50 ,	 0 
	 50 ,	 0 
	 50 ,	 0 
	 50 ,	 0 
	 50 ,	 0 
	 50 ,	 0 
	 50 ,	 0 
	 50 ,	 0 
	 50 ,	 0 
	 50 ,	 0 
	 50 ,	 0 
	 50 ,	 0 
END
