CITIFILE A.01.01
#Momentum: B.10.24.175 (*) 2012.08-HF4 May  3 2013 
#Momentum Date and Time: Sat Oct 18 15:56:36 2014

NAME Momentum.SP

#  mode: MW    reference: S_50

CONSTANT NBR_OF_PORTS 1

CONSTANT NORMALIZATION 2.757416088

VAR freq MAG 477

DATA S[1,1] RI
DATA PORTZ[1] RI

VAR_LIST_BEGIN
	 500000000
	 503298611.1
	 506597222.2
	 509895833.3
	 513194444.4
	 516493055.5
	 519791666.7
	 523090277.8
	 526388888.9
	 529687500
	 532986111.1
	 536284722.2
	 539583333.3
	 542881944.4
	 546180555.5
	 549479166.6
	 552777777.8
	 556076388.9
	 559375000
	 562673611.1
	 565972222.2
	 569270833.3
	 572569444.4
	 575868055.5
	 579166666.6
	 582465277.7
	 585763888.8
	 589062500
	 592361111.1
	 595659722.2
	 598958333.3
	 602256944.4
	 605555555.5
	 608854166.6
	 612152777.7
	 615451388.8
	 618750000
	 622048611.1
	 625347222.2
	 628645833.3
	 631944444.4
	 635243055.5
	 638541666.6
	 641840277.7
	 645138888.8
	 648437500
	 651736111.1
	 655034722.2
	 658333333.3
	 659982638.8
	 661631944.4
	 663281250
	 664930555.5
	 666579861
	 668229166.6
	 669878472.2
	 671527777.7
	 673177083.3
	 674826388.8
	 676475694.4
	 678124999.9
	 679774305.5
	 681423611
	 683072916.5
	 684722222.1
	 685134548.5
	 685546874.9
	 685959201.3
	 686371527.7
	 686783854
	 687196180.4
	 687608506.8
	 688020833.2
	 688433159.6
	 688845486
	 689257812.4
	 689670138.8
	 690082465.1
	 690494791.5
	 690907117.9
	 691319444.3
	 691731770.7
	 692144097.1
	 692556423.5
	 692968749.8
	 693381076.2
	 693793402.6
	 694205729
	 694618055.4
	 695030381.8
	 695442708.2
	 695855034.6
	 696267361
	 696679687.3
	 697092013.7
	 697504340.1
	 697916666.5
	 698741319.3
	 699565972.1
	 700390624.8
	 701215277.6
	 702039930.4
	 702864583.2
	 703689236
	 704513888.8
	 705338541.5
	 706163194.3
	 706987847.1
	 707812499.9
	 708637152.7
	 709461805.4
	 710286458.2
	 711111111
	 711523437.4
	 711935763.8
	 712348090.2
	 712760416.6
	 713172743
	 713585069.4
	 713997395.8
	 714409722.1
	 714822048.5
	 715234374.9
	 715646701.3
	 716059027.7
	 716471354.1
	 716883680.5
	 717296006.9
	 717708333.3
	 718120659.7
	 718532986.1
	 718945312.5
	 719357638.8
	 719769965.2
	 720182291.6
	 720594618
	 721006944.4
	 721419270.8
	 721831597.2
	 722243923.6
	 722656250
	 723068576.3
	 723480902.7
	 723893229.1
	 724305555.5
	 725130208.3
	 725954861
	 726779513.8
	 727604166.6
	 728428819.4
	 729253472.2
	 730078124.9
	 730902777.7
	 731727430.5
	 732552083.3
	 733376736
	 734201388.8
	 735026041.6
	 735850694.3
	 736675347.1
	 737499999.9
	 739149305.5
	 740798611
	 742447916.6
	 744097222.1
	 745746527.7
	 747395833.2
	 749045138.8
	 750694444.3
	 752343749.9
	 753993055.5
	 755642361
	 757291666.6
	 758940972.1
	 760590277.7
	 762239583.2
	 763888888.8
	 765538194.4
	 767187499.9
	 768836805.5
	 770486111
	 772135416.6
	 773784722.1
	 775434027.7
	 777083333.2
	 778732638.8
	 780381944.3
	 782031249.9
	 783680555.4
	 785329861
	 786979166.5
	 788628472.1
	 790277777.6
	 791927083.2
	 793576388.8
	 795225694.3
	 796874999.9
	 798524305.4
	 800173611
	 801822916.5
	 803472222.1
	 805121527.6
	 806770833.2
	 808420138.7
	 810069444.3
	 811718749.8
	 813368055.4
	 815017360.9
	 816666666.5
	 823263888.7
	 829861110.9
	 836458333.2
	 843055555.4
	 849652777.6
	 856249999.8
	 862847222
	 869444444.3
	 876041666.5
	 882638888.7
	 889236110.9
	 895833333.1
	 902430555.3
	 909027777.6
	 915624999.8
	 922222222
	 935416666.4
	 948611110.9
	 961805555.3
	 974999999.8
	 988194444.2
	 1001388889
	 1014583333
	 1027777778
	 1040972222
	 1054166666
	 1067361111
	 1080555555
	 1093750000
	 1106944444
	 1120138889
	 1133333333
	 1139930555
	 1146527778
	 1153125000
	 1159722222
	 1166319444
	 1172916667
	 1179513889
	 1186111111
	 1189409722
	 1192708333
	 1196006944
	 1199305556
	 1202604167
	 1205902778
	 1209201389
	 1212500000
	 1215798611
	 1219097222
	 1222395833
	 1225694445
	 1228993056
	 1232291667
	 1235590278
	 1238888889
	 1242187500
	 1245486111
	 1248784722
	 1252083334
	 1255381945
	 1258680556
	 1261979167
	 1265277778
	 1268576389
	 1271875000
	 1275173611
	 1278472223
	 1281770834
	 1285069445
	 1288368056
	 1291666667
	 1293315973
	 1294965278
	 1296614584
	 1298263889
	 1299913195
	 1301562500
	 1303211806
	 1304861112
	 1306510417
	 1308159723
	 1309809028
	 1311458334
	 1313107639
	 1314756945
	 1316406250
	 1318055556
	 1318467882
	 1318880209
	 1319292535
	 1319704862
	 1320117188
	 1320529514
	 1320941841
	 1321354167
	 1321766493
	 1322178820
	 1322591146
	 1323003473
	 1323415799
	 1323828125
	 1324240452
	 1324652778
	 1325065104
	 1325477431
	 1325889757
	 1326302084
	 1326714410
	 1327126736
	 1327539063
	 1327951389
	 1328363715
	 1328776042
	 1329188368
	 1329600695
	 1330013021
	 1330425347
	 1330837674
	 1331250000
	 1332074653
	 1332899306
	 1333723958
	 1334548611
	 1335373264
	 1336197917
	 1337022569
	 1337847222
	 1338671875
	 1339496528
	 1340321180
	 1341145833
	 1341970486
	 1342795139
	 1343619791
	 1344444444
	 1346093750
	 1347743055
	 1349392361
	 1351041666
	 1352690972
	 1354340277
	 1355989583
	 1357638889
	 1359288194
	 1360937500
	 1362586805
	 1364236111
	 1365885416
	 1367534722
	 1369184027
	 1370833333
	 1371657986
	 1372482639
	 1373307291
	 1374131944
	 1374956597
	 1375781250
	 1376605902
	 1377430555
	 1378255208
	 1379079861
	 1379904514
	 1380729166
	 1381553819
	 1382378472
	 1383203125
	 1384027778
	 1385677083
	 1387326389
	 1388975694
	 1390625000
	 1392274305
	 1393923611
	 1395572916
	 1397222222
	 1400520833
	 1403819444
	 1407118055
	 1410416667
	 1413715278
	 1417013889
	 1420312500
	 1423611111
	 1426909722
	 1430208333
	 1433506944
	 1436805556
	 1440104167
	 1443402778
	 1446701389
	 1450000000
	 1459895833
	 1469791667
	 1479687500
	 1489583334
	 1499479167
	 1509375000
	 1519270834
	 1529166667
	 1539062500
	 1548958334
	 1558854167
	 1568750001
	 1578645834
	 1588541667
	 1598437501
	 1608333334
	 1618229167
	 1628125001
	 1638020834
	 1647916667
	 1657812501
	 1667708334
	 1677604167
	 1687500001
	 1697395834
	 1707291667
	 1717187500
	 1727083334
	 1736979167
	 1746875000
	 1756770834
	 1766666667
	 1776562500
	 1786458334
	 1796354167
	 1806250001
	 1816145834
	 1826041667
	 1835937501
	 1845833334
	 1855729167
	 1865625001
	 1875520834
	 1885416668
	 1895312501
	 1905208334
	 1915104168
	 1925000001
	 1934895834
	 1944791668
	 1954687501
	 1964583334
	 1974479168
	 1984375001
	 1994270834
	 2004166668
	 2023958334
	 2043750001
	 2063541667
	 2083333334
	 2103125001
	 2122916667
	 2142708334
	 2162500001
	 2182291667
	 2202083334
	 2221875000
	 2241666667
	 2261458334
	 2281250000
	 2301041667
	 2320833334
	 2340625000
	 2360416667
	 2380208333
	 2400000000
VAR_LIST_END

BEGIN
	 0.91656,	-0.61268
	 0.91394,	-0.6217
	 0.91121,	-0.63093
	 0.90836,	-0.64037
	 0.9054,	-0.65005
	 0.9023,	-0.65996
	 0.89906,	-0.67013
	 0.89568,	-0.68055
	 0.89214,	-0.69125
	 0.88844,	-0.70223
	 0.88456,	-0.71351
	 0.88049,	-0.7251
	 0.87622,	-0.73702
	 0.87173,	-0.74928
	 0.86702,	-0.7619
	 0.86206,	-0.7749
	 0.85683,	-0.78829
	 0.85132,	-0.8021
	 0.84551,	-0.81634
	 0.83937,	-0.83105
	 0.83287,	-0.84623
	 0.82599,	-0.86193
	 0.81869,	-0.87817
	 0.81095,	-0.89498
	 0.80273,	-0.91238
	 0.79397,	-0.93041
	 0.78464,	-0.94911
	 0.77468,	-0.96852
	 0.76404,	-0.98868
	 0.75265,	-1.0096
	 0.74044,	-1.0314
	 0.72732,	-1.0541
	 0.71321,	-1.0777
	 0.69801,	-1.1023
	 0.68159,	-1.1279
	 0.66383,	-1.1547
	 0.64457,	-1.1826
	 0.62365,	-1.2118
	 0.60087,	-1.2422
	 0.57601,	-1.2741
	 0.54881,	-1.3074
	 0.51899,	-1.3422
	 0.4862,	-1.3785
	 0.45005,	-1.4165
	 0.41008,	-1.4561
	 0.36578,	-1.4973
	 0.31653,	-1.5401
	 0.26163,	-1.5845
	 0.20024,	-1.6302
	 0.16682,	-1.6536
	 0.13142,	-1.6771
	 0.093881,	-1.7008
	 0.054051,	-1.7246
	 0.01177,	-1.7485
	-0.033138,	-1.7723
	-0.080862,	-1.7959
	-0.13159,	-1.8192
	-0.18555,	-1.8419
	-0.24295,	-1.864
	-0.30401,	-1.8852
	-0.36898,	-1.9051
	-0.43808,	-1.9236
	-0.51156,	-1.9401
	-0.58964,	-1.9543
	-0.67253,	-1.9657
	-0.69403,	-1.968
	-0.71584,	-1.9701
	-0.73798,	-1.972
	-0.76043,	-1.9736
	-0.7832,	-1.975
	-0.8063,	-1.9761
	-0.82973,	-1.977
	-0.85348,	-1.9775
	-0.87756,	-1.9778
	-0.90197,	-1.9777
	-0.92672,	-1.9773
	-0.95179,	-1.9766
	-0.97719,	-1.9755
	-1.0029,	-1.974
	-1.029,	-1.9722
	-1.0554,	-1.9699
	-1.0821,	-1.9673
	-1.1091,	-1.9642
	-1.1365,	-1.9607
	-1.1641,	-1.9567
	-1.1921,	-1.9523
	-1.2204,	-1.9473
	-1.249,	-1.9419
	-1.2779,	-1.9359
	-1.3071,	-1.9293
	-1.3366,	-1.9222
	-1.3663,	-1.9145
	-1.3963,	-1.9063
	-1.4266,	-1.8973
	-1.4571,	-1.8878
	-1.4878,	-1.8776
	-1.5188,	-1.8667
	-1.5813,	-1.8429
	-1.6445,	-1.816
	-1.7083,	-1.7861
	-1.7725,	-1.753
	-1.8369,	-1.7165
	-1.9014,	-1.6764
	-1.9656,	-1.6328
	-2.0294,	-1.5853
	-2.0926,	-1.5341
	-2.1547,	-1.4789
	-2.2155,	-1.4197
	-2.2748,	-1.3565
	-2.3322,	-1.2893
	-2.3872,	-1.2182
	-2.4397,	-1.1431
	-2.4892,	-1.0642
	-2.5127,	-1.0234
	-2.5354,	-0.98173
	-2.5571,	-0.93916
	-2.5779,	-0.89575
	-2.5976,	-0.85153
	-2.6164,	-0.80654
	-2.634,	-0.76079
	-2.6505,	-0.71434
	-2.6659,	-0.66722
	-2.6801,	-0.61947
	-2.6931,	-0.57114
	-2.7048,	-0.52227
	-2.7152,	-0.47291
	-2.7243,	-0.42311
	-2.7321,	-0.37292
	-2.7385,	-0.3224
	-2.7436,	-0.2716
	-2.7472,	-0.22056
	-2.7495,	-0.16936
	-2.7504,	-0.11805
	-2.7498,	-0.066683
	-2.7478,	-0.015317
	-2.7445,	 0.035987
	-2.7397,	 0.087172
	-2.7335,	 0.13817
	-2.7259,	 0.18895
	-2.7169,	 0.23943
	-2.7066,	 0.28956
	-2.6949,	 0.33929
	-2.6818,	 0.38857
	-2.6675,	 0.43734
	-2.6519,	 0.48555
	-2.6171,	 0.58012
	-2.5775,	 0.67191
	-2.5335,	 0.76059
	-2.4854,	 0.84589
	-2.4336,	 0.92756
	-2.3783,	 1.0054
	-2.3201,	 1.0792
	-2.2592,	 1.1489
	-2.196,	 1.2145
	-2.1312,	 1.2757
	-2.0644,	 1.3327
	-1.9965,	 1.3855
	-1.9277,	 1.4342
	-1.8583,	 1.4788
	-1.7886,	 1.5193
	-1.7188,	 1.5561
	-1.58,	 1.6184
	-1.4434,	 1.6672
	-1.3105,	 1.7035
	-1.1821,	 1.7288
	-1.0589,	 1.7445
	-0.94146,	 1.7517
	-0.82995,	 1.7517
	-0.7245,	 1.7455
	-0.62509,	 1.7342
	-0.53159,	 1.7186
	-0.44384,	 1.6994
	-0.3616,	 1.6773
	-0.28461,	 1.6529
	-0.21259,	 1.6267
	-0.14525,	 1.5991
	-0.082326,	 1.5705
	-0.023511,	 1.5411
	 0.031458,	 1.5112
	 0.082843,	 1.4811
	 0.13089,	 1.4508
	 0.17584,	 1.4206
	 0.2179,	 1.3906
	 0.25729,	 1.3608
	 0.2942,	 1.3314
	 0.32881,	 1.3024
	 0.36127,	 1.2738
	 0.39175,	 1.2458
	 0.42039,	 1.2182
	 0.44731,	 1.1912
	 0.47264,	 1.1647
	 0.49648,	 1.1389
	 0.51895,	 1.1135
	 0.54014,	 1.0888
	 0.56014,	 1.0646
	 0.57902,	 1.041
	 0.59686,	 1.0179
	 0.61373,	 0.99538
	 0.62969,	 0.97339
	 0.64481,	 0.95192
	 0.65914,	 0.93097
	 0.67272,	 0.91051
	 0.68561,	 0.89055
	 0.69785,	 0.87106
	 0.70948,	 0.85203
	 0.72054,	 0.83345
	 0.73105,	 0.8153
	 0.74106,	 0.79758
	 0.75059,	 0.78027
	 0.78448,	 0.71489
	 0.81265,	 0.65513
	 0.83626,	 0.60031
	 0.85618,	 0.54984
	 0.87309,	 0.50319
	 0.88754,	 0.45992
	 0.89993,	 0.41962
	 0.91062,	 0.38197
	 0.91987,	 0.34665
	 0.92789,	 0.31341
	 0.93488,	 0.28202
	 0.94097,	 0.25229
	 0.94629,	 0.22403
	 0.95094,	 0.1971
	 0.955,	 0.17136
	 0.95855,	 0.14667
	 0.96433,	 0.10008
	 0.96864,	 0.056558
	 0.97177,	 0.015496
	 0.9739,	-0.023623
	 0.97517,	-0.061238
	 0.97568,	-0.097739
	 0.97549,	-0.13347
	 0.97463,	-0.16875
	 0.97311,	-0.2039
	 0.97093,	-0.23921
	 0.96803,	-0.275
	 0.96436,	-0.31158
	 0.95981,	-0.34931
	 0.95424,	-0.3886
	 0.94747,	-0.42989
	 0.93923,	-0.47373
	 0.93445,	-0.49681
	 0.92916,	-0.52078
	 0.92329,	-0.54576
	 0.91676,	-0.57186
	 0.90948,	-0.59922
	 0.90133,	-0.62799
	 0.89217,	-0.65835
	 0.88183,	-0.6905
	 0.87616,	-0.70732
	 0.87011,	-0.72468
	 0.86366,	-0.74261
	 0.85676,	-0.76115
	 0.84937,	-0.78034
	 0.84144,	-0.80023
	 0.83293,	-0.82085
	 0.82377,	-0.84227
	 0.8139,	-0.86453
	 0.80324,	-0.8877
	 0.7917,	-0.91184
	 0.77919,	-0.93702
	 0.76559,	-0.96332
	 0.75077,	-0.99081
	 0.73458,	-1.0196
	 0.71686,	-1.0497
	 0.69731,	-1.0814
	 0.67577,	-1.1146
	 0.65197,	-1.1496
	 0.62557,	-1.1863
	 0.59619,	-1.2249
	 0.56337,	-1.2656
	 0.52658,	-1.3084
	 0.48517,	-1.3534
	 0.43836,	-1.4006
	 0.38524,	-1.4501
	 0.32469,	-1.5018
	 0.25538,	-1.5554
	 0.1757,	-1.6104
	 0.083753,	-1.6662
	-0.022741,	-1.7216
	-0.1464,	-1.7748
	-0.21558,	-1.7997
	-0.29019,	-1.8229
	-0.37062,	-1.8438
	-0.45727,	-1.8618
	-0.55052,	-1.8761
	-0.65068,	-1.8856
	-0.75801,	-1.8893
	-0.87264,	-1.8859
	-0.99452,	-1.8738
	-1.1234,	-1.8514
	-1.2586,	-1.8167
	-1.3992,	-1.7677
	-1.5436,	-1.7024
	-1.6897,	-1.6188
	-1.8349,	-1.515
	-1.9755,	-1.3897
	-2.0096,	-1.3549
	-2.043,	-1.3187
	-2.0757,	-1.2812
	-2.1077,	-1.2422
	-2.1388,	-1.2019
	-2.1691,	-1.1602
	-2.1984,	-1.1172
	-2.2267,	-1.0728
	-2.2539,	-1.0272
	-2.2798,	-0.98026
	-2.3045,	-0.93216
	-2.3279,	-0.88288
	-2.3498,	-0.83249
	-2.3703,	-0.78104
	-2.3892,	-0.72859
	-2.4065,	-0.67521
	-2.4221,	-0.62096
	-2.436,	-0.56592
	-2.4482,	-0.51018
	-2.4585,	-0.45382
	-2.467,	-0.39692
	-2.4735,	-0.33957
	-2.4782,	-0.28188
	-2.4809,	-0.22392
	-2.4816,	-0.16581
	-2.4804,	-0.10764
	-2.4772,	-0.049519
	-2.472,	 0.008472
	-2.4649,	 0.066224
	-2.4558,	 0.12363
	-2.4448,	 0.18062
	-2.4319,	 0.23707
	-2.4006,	 0.34804
	-2.3622,	 0.45583
	-2.3172,	 0.55982
	-2.266,	 0.65945
	-2.2093,	 0.75423
	-2.1476,	 0.84379
	-2.0815,	 0.92781
	-2.0118,	 1.0061
	-1.939,	 1.0785
	-1.8637,	 1.1449
	-1.7865,	 1.2054
	-1.708,	 1.2601
	-1.6287,	 1.3091
	-1.549,	 1.3526
	-1.4695,	 1.3907
	-1.3904,	 1.4238
	-1.2351,	 1.4759
	-1.0851,	 1.5111
	-0.94194,	 1.5318
	-0.80665,	 1.5401
	-0.67969,	 1.5381
	-0.56124,	 1.5277
	-0.45122,	 1.5105
	-0.34937,	 1.4879
	-0.25532,	 1.4612
	-0.16863,	 1.4312
	-0.088815,	 1.3988
	-0.015378,	 1.3648
	 0.052168,	 1.3296
	 0.11429,	 1.2937
	 0.17145,	 1.2575
	 0.22406,	 1.2212
	 0.24878,	 1.2031
	 0.27251,	 1.1851
	 0.29529,	 1.1672
	 0.31716,	 1.1494
	 0.33817,	 1.1317
	 0.35835,	 1.1141
	 0.37775,	 1.0967
	 0.39638,	 1.0795
	 0.4143,	 1.0624
	 0.43153,	 1.0455
	 0.44809,	 1.0287
	 0.46403,	 1.0122
	 0.47937,	 0.99584
	 0.49413,	 0.97968
	 0.50835,	 0.96371
	 0.52203,	 0.94793
	 0.54792,	 0.91698
	 0.57196,	 0.88682
	 0.59431,	 0.85744
	 0.6151,	 0.82884
	 0.63447,	 0.80101
	 0.65253,	 0.77392
	 0.66939,	 0.74756
	 0.68513,	 0.7219
	 0.7136,	 0.67262
	 0.73856,	 0.6259
	 0.7605,	 0.58155
	 0.77983,	 0.53939
	 0.79689,	 0.49926
	 0.81199,	 0.46099
	 0.82537,	 0.42443
	 0.83722,	 0.38943
	 0.84775,	 0.35588
	 0.85708,	 0.32364
	 0.86535,	 0.29261
	 0.87268,	 0.26269
	 0.87915,	 0.23377
	 0.88485,	 0.20578
	 0.88984,	 0.17863
	 0.8942,	 0.15224
	 0.9039,	 0.077031
	 0.90931,	 0.0064874
	 0.91108,	-0.060733
	 0.90957,	-0.12577
	 0.9049,	-0.18965
	 0.897,	-0.25329
	 0.88558,	-0.31756
	 0.87016,	-0.38333
	 0.84997,	-0.45147
	 0.8239,	-0.52288
	 0.79039,	-0.59845
	 0.74721,	-0.67908
	 0.69121,	-0.7655
	 0.61791,	-0.85805
	 0.52093,	-0.95611
	 0.39135,	-1.0569
	 0.21716,	-1.1532
	-0.016062,	-1.2288
	-0.32038,	-1.2522
	-0.69057,	-1.1702
	-1.0752,	-0.91791
	-1.3568,	-0.47179
	-1.4091,	 0.080172
	-1.217,	 0.57015
	-0.88895,	 0.88922
	-0.5443,	 1.0397
	-0.24503,	 1.0758
	-0.0058691,	 1.0485
	 0.17922,	 0.99112
	 0.32143,	 0.92208
	 0.43117,	 0.85074
	 0.51667,	 0.78154
	 0.58408,	 0.71638
	 0.63784,	 0.65587
	 0.68122,	 0.60003
	 0.71659,	 0.54859
	 0.74568,	 0.50116
	 0.76981,	 0.45733
	 0.78997,	 0.41672
	 0.80689,	 0.37896
	 0.82117,	 0.34373
	 0.83326,	 0.31075
	 0.8435,	 0.27977
	 0.85219,	 0.25056
	 0.85954,	 0.22294
	 0.86575,	 0.19675
	 0.87096,	 0.17183
	 0.87529,	 0.14806
	 0.87884,	 0.12533
	 0.8817,	 0.10354
	 0.88393,	 0.082616
	 0.8856,	 0.062466
	 0.88674,	 0.043031
	 0.88741,	 0.024252
	 0.88763,	 0.0060783
	 0.88744,	-0.011535
	 0.88589,	-0.045239
	 0.88291,	-0.077124
	 0.87863,	-0.10739
	 0.87313,	-0.1362
	 0.86646,	-0.16366
	 0.85868,	-0.18984
	 0.84983,	-0.21481
	 0.83996,	-0.23859
	 0.82912,	-0.26119
	 0.81734,	-0.2826
	 0.80469,	-0.3028
	 0.79123,	-0.32179
	 0.77704,	-0.33953
	 0.76219,	-0.356
	 0.74677,	-0.37117
	 0.73088,	-0.38504
	 0.71462,	-0.39759
	 0.69809,	-0.40883
	 0.68142,	-0.41877
	 0.66469,	-0.42744
END
BEGIN
	 50 ,	 0 
	 50 ,	 0 
	 50 ,	 0 
	 50 ,	 0 
	 50 ,	 0 
	 50 ,	 0 
	 50 ,	 0 
	 50 ,	 0 
	 50 ,	 0 
	 50 ,	 0 
	 50 ,	 0 
	 50 ,	 0 
	 50 ,	 0 
	 50 ,	 0 
	 50 ,	 0 
	 50 ,	 0 
	 50 ,	 0 
	 50 ,	 0 
	 50 ,	 0 
	 50 ,	 0 
	 50 ,	 0 
	 50 ,	 0 
	 50 ,	 0 
	 50 ,	 0 
	 50 ,	 0 
	 50 ,	 0 
	 50 ,	 0 
	 50 ,	 0 
	 50 ,	 0 
	 50 ,	 0 
	 50 ,	 0 
	 50 ,	 0 
	 50 ,	 0 
	 50 ,	 0 
	 50 ,	 0 
	 50 ,	 0 
	 50 ,	 0 
	 50 ,	 0 
	 50 ,	 0 
	 50 ,	 0 
	 50 ,	 0 
	 50 ,	 0 
	 50 ,	 0 
	 50 ,	 0 
	 50 ,	 0 
	 50 ,	 0 
	 50 ,	 0 
	 50 ,	 0 
	 50 ,	 0 
	 50 ,	 0 
	 50 ,	 0 
	 50 ,	 0 
	 50 ,	 0 
	 50 ,	 0 
	 50 ,	 0 
	 50 ,	 0 
	 50 ,	 0 
	 50 ,	 0 
	 50 ,	 0 
	 50 ,	 0 
	 50 ,	 0 
	 50 ,	 0 
	 50 ,	 0 
	 50 ,	 0 
	 50 ,	 0 
	 50 ,	 0 
	 50 ,	 0 
	 50 ,	 0 
	 50 ,	 0 
	 50 ,	 0 
	 50 ,	 0 
	 50 ,	 0 
	 50 ,	 0 
	 50 ,	 0 
	 50 ,	 0 
	 50 ,	 0 
	 50 ,	 0 
	 50 ,	 0 
	 50 ,	 0 
	 50 ,	 0 
	 50 ,	 0 
	 50 ,	 0 
	 50 ,	 0 
	 50 ,	 0 
	 50 ,	 0 
	 50 ,	 0 
	 50 ,	 0 
	 50 ,	 0 
	 50 ,	 0 
	 50 ,	 0 
	 50 ,	 0 
	 50 ,	 0 
	 50 ,	 0 
	 50 ,	 0 
	 50 ,	 0 
	 50 ,	 0 
	 50 ,	 0 
	 50 ,	 0 
	 50 ,	 0 
	 50 ,	 0 
	 50 ,	 0 
	 50 ,	 0 
	 50 ,	 0 
	 50 ,	 0 
	 50 ,	 0 
	 50 ,	 0 
	 50 ,	 0 
	 50 ,	 0 
	 50 ,	 0 
	 50 ,	 0 
	 50 ,	 0 
	 50 ,	 0 
	 50 ,	 0 
	 50 ,	 0 
	 50 ,	 0 
	 50 ,	 0 
	 50 ,	 0 
	 50 ,	 0 
	 50 ,	 0 
	 50 ,	 0 
	 50 ,	 0 
	 50 ,	 0 
	 50 ,	 0 
	 50 ,	 0 
	 50 ,	 0 
	 50 ,	 0 
	 50 ,	 0 
	 50 ,	 0 
	 50 ,	 0 
	 50 ,	 0 
	 50 ,	 0 
	 50 ,	 0 
	 50 ,	 0 
	 50 ,	 0 
	 50 ,	 0 
	 50 ,	 0 
	 50 ,	 0 
	 50 ,	 0 
	 50 ,	 0 
	 50 ,	 0 
	 50 ,	 0 
	 50 ,	 0 
	 50 ,	 0 
	 50 ,	 0 
	 50 ,	 0 
	 50 ,	 0 
	 50 ,	 0 
	 50 ,	 0 
	 50 ,	 0 
	 50 ,	 0 
	 50 ,	 0 
	 50 ,	 0 
	 50 ,	 0 
	 50 ,	 0 
	 50 ,	 0 
	 50 ,	 0 
	 50 ,	 0 
	 50 ,	 0 
	 50 ,	 0 
	 50 ,	 0 
	 50 ,	 0 
	 50 ,	 0 
	 50 ,	 0 
	 50 ,	 0 
	 50 ,	 0 
	 50 ,	 0 
	 50 ,	 0 
	 50 ,	 0 
	 50 ,	 0 
	 50 ,	 0 
	 50 ,	 0 
	 50 ,	 0 
	 50 ,	 0 
	 50 ,	 0 
	 50 ,	 0 
	 50 ,	 0 
	 50 ,	 0 
	 50 ,	 0 
	 50 ,	 0 
	 50 ,	 0 
	 50 ,	 0 
	 50 ,	 0 
	 50 ,	 0 
	 50 ,	 0 
	 50 ,	 0 
	 50 ,	 0 
	 50 ,	 0 
	 50 ,	 0 
	 50 ,	 0 
	 50 ,	 0 
	 50 ,	 0 
	 50 ,	 0 
	 50 ,	 0 
	 50 ,	 0 
	 50 ,	 0 
	 50 ,	 0 
	 50 ,	 0 
	 50 ,	 0 
	 50 ,	 0 
	 50 ,	 0 
	 50 ,	 0 
	 50 ,	 0 
	 50 ,	 0 
	 50 ,	 0 
	 50 ,	 0 
	 50 ,	 0 
	 50 ,	 0 
	 50 ,	 0 
	 50 ,	 0 
	 50 ,	 0 
	 50 ,	 0 
	 50 ,	 0 
	 50 ,	 0 
	 50 ,	 0 
	 50 ,	 0 
	 50 ,	 0 
	 50 ,	 0 
	 50 ,	 0 
	 50 ,	 0 
	 50 ,	 0 
	 50 ,	 0 
	 50 ,	 0 
	 50 ,	 0 
	 50 ,	 0 
	 50 ,	 0 
	 50 ,	 0 
	 50 ,	 0 
	 50 ,	 0 
	 50 ,	 0 
	 50 ,	 0 
	 50 ,	 0 
	 50 ,	 0 
	 50 ,	 0 
	 50 ,	 0 
	 50 ,	 0 
	 50 ,	 0 
	 50 ,	 0 
	 50 ,	 0 
	 50 ,	 0 
	 50 ,	 0 
	 50 ,	 0 
	 50 ,	 0 
	 50 ,	 0 
	 50 ,	 0 
	 50 ,	 0 
	 50 ,	 0 
	 50 ,	 0 
	 50 ,	 0 
	 50 ,	 0 
	 50 ,	 0 
	 50 ,	 0 
	 50 ,	 0 
	 50 ,	 0 
	 50 ,	 0 
	 50 ,	 0 
	 50 ,	 0 
	 50 ,	 0 
	 50 ,	 0 
	 50 ,	 0 
	 50 ,	 0 
	 50 ,	 0 
	 50 ,	 0 
	 50 ,	 0 
	 50 ,	 0 
	 50 ,	 0 
	 50 ,	 0 
	 50 ,	 0 
	 50 ,	 0 
	 50 ,	 0 
	 50 ,	 0 
	 50 ,	 0 
	 50 ,	 0 
	 50 ,	 0 
	 50 ,	 0 
	 50 ,	 0 
	 50 ,	 0 
	 50 ,	 0 
	 50 ,	 0 
	 50 ,	 0 
	 50 ,	 0 
	 50 ,	 0 
	 50 ,	 0 
	 50 ,	 0 
	 50 ,	 0 
	 50 ,	 0 
	 50 ,	 0 
	 50 ,	 0 
	 50 ,	 0 
	 50 ,	 0 
	 50 ,	 0 
	 50 ,	 0 
	 50 ,	 0 
	 50 ,	 0 
	 50 ,	 0 
	 50 ,	 0 
	 50 ,	 0 
	 50 ,	 0 
	 50 ,	 0 
	 50 ,	 0 
	 50 ,	 0 
	 50 ,	 0 
	 50 ,	 0 
	 50 ,	 0 
	 50 ,	 0 
	 50 ,	 0 
	 50 ,	 0 
	 50 ,	 0 
	 50 ,	 0 
	 50 ,	 0 
	 50 ,	 0 
	 50 ,	 0 
	 50 ,	 0 
	 50 ,	 0 
	 50 ,	 0 
	 50 ,	 0 
	 50 ,	 0 
	 50 ,	 0 
	 50 ,	 0 
	 50 ,	 0 
	 50 ,	 0 
	 50 ,	 0 
	 50 ,	 0 
	 50 ,	 0 
	 50 ,	 0 
	 50 ,	 0 
	 50 ,	 0 
	 50 ,	 0 
	 50 ,	 0 
	 50 ,	 0 
	 50 ,	 0 
	 50 ,	 0 
	 50 ,	 0 
	 50 ,	 0 
	 50 ,	 0 
	 50 ,	 0 
	 50 ,	 0 
	 50 ,	 0 
	 50 ,	 0 
	 50 ,	 0 
	 50 ,	 0 
	 50 ,	 0 
	 50 ,	 0 
	 50 ,	 0 
	 50 ,	 0 
	 50 ,	 0 
	 50 ,	 0 
	 50 ,	 0 
	 50 ,	 0 
	 50 ,	 0 
	 50 ,	 0 
	 50 ,	 0 
	 50 ,	 0 
	 50 ,	 0 
	 50 ,	 0 
	 50 ,	 0 
	 50 ,	 0 
	 50 ,	 0 
	 50 ,	 0 
	 50 ,	 0 
	 50 ,	 0 
	 50 ,	 0 
	 50 ,	 0 
	 50 ,	 0 
	 50 ,	 0 
	 50 ,	 0 
	 50 ,	 0 
	 50 ,	 0 
	 50 ,	 0 
	 50 ,	 0 
	 50 ,	 0 
	 50 ,	 0 
	 50 ,	 0 
	 50 ,	 0 
	 50 ,	 0 
	 50 ,	 0 
	 50 ,	 0 
	 50 ,	 0 
	 50 ,	 0 
