CITIFILE A.01.01
#Momentum: B.10.24.175 (*) 2012.08-HF4 May  3 2013 
#Momentum Date and Time: Sat Oct 18 20:57:32 2014

NAME Momentum.SP

#  mode: MW    reference: S_50

CONSTANT NBR_OF_PORTS 1

CONSTANT NORMALIZATION 1

VAR freq MAG 297

DATA S[1,1] RI
DATA PORTZ[1] RI

VAR_LIST_BEGIN
	 500000000
	 507291666.7
	 514583333.3
	 521875000
	 529166666.7
	 536458333.3
	 543750000
	 551041666.7
	 558333333.3
	 565625000
	 572916666.7
	 580208333.3
	 587500000
	 594791666.7
	 602083333.3
	 609375000
	 616666666.6
	 623958333.3
	 631250000
	 638541666.6
	 645833333.3
	 653125000
	 660416666.6
	 667708333.3
	 675000000
	 678645833.3
	 682291666.6
	 685937500
	 689583333.3
	 693229166.6
	 696875000
	 700520833.3
	 704166666.6
	 707812500
	 711458333.3
	 715104166.6
	 718750000
	 722395833.3
	 726041666.6
	 729687500
	 733333333.3
	 736979166.6
	 740625000
	 744270833.3
	 747916666.6
	 751562500
	 755208333.3
	 758854166.6
	 762500000
	 766145833.3
	 769791666.6
	 773437500
	 777083333.3
	 780729166.6
	 784375000
	 788020833.3
	 791666666.6
	 793489583.3
	 795312500
	 797135416.7
	 798958333.3
	 800781250
	 802604166.7
	 804427083.3
	 806250000
	 808072916.7
	 809895833.3
	 811718750
	 813541666.7
	 815364583.3
	 817187500
	 819010416.7
	 820833333.3
	 822656250
	 824479166.7
	 826302083.3
	 828125000
	 829947916.7
	 831770833.3
	 833593750
	 835416666.7
	 837239583.3
	 839062500
	 840885416.7
	 842708333.3
	 844531250
	 846354166.7
	 848177083.3
	 850000000
	 851822916.7
	 853645833.3
	 855468750
	 857291666.7
	 859114583.3
	 860937500
	 862760416.7
	 864583333.4
	 865494791.7
	 866406250
	 867317708.4
	 868229166.7
	 869140625
	 870052083.4
	 870963541.7
	 871875000
	 872786458.4
	 873697916.7
	 874609375
	 875520833.4
	 876432291.7
	 877343750
	 878255208.4
	 879166666.7
	 880078125
	 880989583.4
	 881901041.7
	 882812500
	 883723958.4
	 884635416.7
	 885546875
	 886458333.4
	 887369791.7
	 888281250
	 889192708.4
	 890104166.7
	 891015625
	 891927083.4
	 892838541.7
	 893750000
	 894661458.4
	 895572916.7
	 896484375.1
	 897395833.4
	 898307291.7
	 899218750.1
	 900130208.4
	 901041666.7
	 901953125.1
	 902864583.4
	 903776041.7
	 904687500.1
	 905598958.4
	 906510416.7
	 907421875.1
	 908333333.4
	 909244791.7
	 910156250.1
	 911067708.4
	 911979166.7
	 912890625.1
	 913802083.4
	 914713541.7
	 915625000
	 916536458.4
	 917447916.7
	 918359375
	 919270833.4
	 920182291.7
	 921093750
	 922005208.4
	 922916666.7
	 923828125
	 924739583.4
	 925651041.7
	 926562500
	 927473958.4
	 928385416.7
	 929296875
	 930208333.4
	 931119791.7
	 932031250
	 932942708.3
	 933854166.7
	 934765625
	 935677083.3
	 936588541.7
	 937500000
	 938411458.3
	 939322916.7
	 940234375
	 941145833.3
	 942057291.7
	 942968750
	 943880208.3
	 944791666.7
	 945703125
	 946614583.3
	 947526041.7
	 948437500
	 949348958.3
	 950260416.7
	 951171875
	 952083333.4
	 952994791.7
	 953906250
	 954817708.4
	 955729166.7
	 956640625
	 957552083.4
	 958463541.7
	 959375000
	 960286458.4
	 961197916.7
	 962109375
	 963020833.4
	 963932291.7
	 964843750
	 965755208.4
	 966666666.7
	 968489583.4
	 970312500
	 972135416.7
	 973958333.3
	 975781250
	 977604166.7
	 979427083.3
	 981250000
	 983072916.6
	 984895833.3
	 986718750
	 988541666.6
	 990364583.3
	 992187500
	 994010416.6
	 995833333.3
	 997656249.9
	 999479166.6
	 1001302083
	 1003125000
	 1004947917
	 1006770833
	 1008593750
	 1010416667
	 1012239583
	 1014062500
	 1015885417
	 1017708333
	 1019531250
	 1021354167
	 1023177083
	 1025000000
	 1026822917
	 1028645833
	 1030468750
	 1032291666
	 1034114583
	 1035937500
	 1037760416
	 1039583333
	 1041406250
	 1043229166
	 1045052083
	 1046875000
	 1048697916
	 1050520833
	 1052343750
	 1054166666
	 1055989583
	 1057812500
	 1059635416
	 1061458333
	 1063281250
	 1065104166
	 1066927083
	 1068750000
	 1072395833
	 1076041666
	 1079687500
	 1083333333
	 1086979166
	 1090625000
	 1094270833
	 1097916666
	 1101562500
	 1105208333
	 1108854166
	 1112500000
	 1116145833
	 1119791666
	 1123437500
	 1127083333
	 1130729166
	 1134375000
	 1138020833
	 1141666667
	 1145312500
	 1148958333
	 1152604167
	 1156250000
	 1159895833
	 1163541667
	 1167187500
	 1170833333
	 1178125000
	 1185416667
	 1192708333
	 1200000000
VAR_LIST_END

BEGIN
	 0.70218,	 0.69805
	 0.71546,	 0.6841
	 0.72837,	 0.66997
	 0.74092,	 0.65567
	 0.75311,	 0.64119
	 0.76496,	 0.62654
	 0.77647,	 0.61171
	 0.78764,	 0.59669
	 0.7985,	 0.58148
	 0.80903,	 0.56607
	 0.81925,	 0.55044
	 0.82916,	 0.5346
	 0.83877,	 0.51852
	 0.84806,	 0.5022
	 0.85706,	 0.48562
	 0.86575,	 0.46877
	 0.87414,	 0.45161
	 0.88222,	 0.43415
	 0.88999,	 0.41635
	 0.89744,	 0.39818
	 0.90457,	 0.37963
	 0.91136,	 0.36067
	 0.9178,	 0.34125
	 0.92388,	 0.32135
	 0.92957,	 0.30092
	 0.93226,	 0.2905
	 0.93485,	 0.27993
	 0.93733,	 0.26921
	 0.93969,	 0.25833
	 0.94194,	 0.24729
	 0.94406,	 0.23607
	 0.94606,	 0.22467
	 0.94792,	 0.21309
	 0.94963,	 0.20131
	 0.9512,	 0.18933
	 0.95262,	 0.17713
	 0.95387,	 0.16472
	 0.95495,	 0.15208
	 0.95584,	 0.1392
	 0.95654,	 0.12607
	 0.95703,	 0.11268
	 0.9573,	 0.099028
	 0.95734,	 0.085089
	 0.95713,	 0.070857
	 0.95666,	 0.056321
	 0.9559,	 0.041468
	 0.95483,	 0.026285
	 0.95344,	 0.010759
	 0.95169,	-0.005123
	 0.94957,	-0.021375
	 0.94704,	-0.03801
	 0.94406,	-0.055042
	 0.94062,	-0.072486
	 0.93665,	-0.090353
	 0.93213,	-0.10865
	 0.92701,	-0.12741
	 0.92123,	-0.14662
	 0.91808,	-0.15641
	 0.91475,	-0.16631
	 0.91122,	-0.17634
	 0.90748,	-0.18648
	 0.90354,	-0.19675
	 0.89938,	-0.20713
	 0.89499,	-0.21764
	 0.89036,	-0.22828
	 0.88549,	-0.23903
	 0.88035,	-0.24991
	 0.87494,	-0.26091
	 0.86925,	-0.27202
	 0.86327,	-0.28326
	 0.85697,	-0.29461
	 0.85036,	-0.30608
	 0.8434,	-0.31766
	 0.8361,	-0.32934
	 0.82843,	-0.34113
	 0.82038,	-0.35302
	 0.81193,	-0.365
	 0.80306,	-0.37706
	 0.79376,	-0.3892
	 0.78401,	-0.40142
	 0.77379,	-0.41369
	 0.76307,	-0.42601
	 0.75185,	-0.43837
	 0.74009,	-0.45076
	 0.72778,	-0.46315
	 0.71489,	-0.47553
	 0.7014,	-0.48788
	 0.6873,	-0.50019
	 0.67255,	-0.51242
	 0.65713,	-0.52455
	 0.64102,	-0.53656
	 0.6242,	-0.54842
	 0.60665,	-0.56008
	 0.58834,	-0.57152
	 0.56925,	-0.58269
	 0.54937,	-0.59356
	 0.52866,	-0.60407
	 0.518,	-0.60918
	 0.50713,	-0.61418
	 0.49604,	-0.61907
	 0.48474,	-0.62383
	 0.47322,	-0.62847
	 0.46149,	-0.63297
	 0.44954,	-0.63733
	 0.43737,	-0.64153
	 0.42499,	-0.64558
	 0.41238,	-0.64945
	 0.39955,	-0.65315
	 0.3865,	-0.65667
	 0.37324,	-0.65998
	 0.35975,	-0.6631
	 0.34605,	-0.666
	 0.33214,	-0.66867
	 0.31801,	-0.67111
	 0.30366,	-0.67331
	 0.28911,	-0.67525
	 0.27436,	-0.67693
	 0.2594,	-0.67834
	 0.24424,	-0.67945
	 0.22889,	-0.68027
	 0.21336,	-0.68078
	 0.19764,	-0.68097
	 0.18174,	-0.68084
	 0.16568,	-0.68036
	 0.14945,	-0.67953
	 0.13308,	-0.67833
	 0.11656,	-0.67676
	 0.099904,	-0.67481
	 0.083123,	-0.67246
	 0.066227,	-0.66971
	 0.04923,	-0.66654
	 0.032142,	-0.66295
	 0.014976,	-0.65892
	-0.0022538,	-0.65445
	-0.019533,	-0.64953
	-0.036848,	-0.64414
	-0.054182,	-0.63829
	-0.07152,	-0.63197
	-0.088845,	-0.62516
	-0.10613,	-0.61787
	-0.12338,	-0.61008
	-0.14056,	-0.6018
	-0.15765,	-0.59302
	-0.17464,	-0.58374
	-0.1915,	-0.57395
	-0.20822,	-0.56366
	-0.22478,	-0.55287
	-0.24114,	-0.54158
	-0.2573,	-0.52978
	-0.27324,	-0.51749
	-0.28892,	-0.50471
	-0.30434,	-0.49145
	-0.31947,	-0.47771
	-0.33428,	-0.46349
	-0.34876,	-0.44882
	-0.3629,	-0.4337
	-0.37666,	-0.41814
	-0.39003,	-0.40215
	-0.40299,	-0.38575
	-0.41553,	-0.36895
	-0.42762,	-0.35177
	-0.43926,	-0.33423
	-0.45041,	-0.31634
	-0.46108,	-0.29812
	-0.47124,	-0.2796
	-0.48089,	-0.26078
	-0.49001,	-0.2417
	-0.49858,	-0.22237
	-0.50661,	-0.20282
	-0.51409,	-0.18307
	-0.521,	-0.16314
	-0.52734,	-0.14305
	-0.53311,	-0.12283
	-0.53831,	-0.1025
	-0.54292,	-0.082087
	-0.54696,	-0.061609
	-0.55042,	-0.041093
	-0.55331,	-0.020561
	-0.55562,	-3.5144e-005
	-0.55736,	 0.020461
	-0.55854,	 0.040906
	-0.55916,	 0.061279
	-0.55924,	 0.081558
	-0.55877,	 0.10172
	-0.55777,	 0.12175
	-0.55625,	 0.14163
	-0.55422,	 0.16134
	-0.5517,	 0.18087
	-0.54868,	 0.20019
	-0.54519,	 0.21929
	-0.54125,	 0.23815
	-0.53686,	 0.25677
	-0.53203,	 0.27513
	-0.5268,	 0.29321
	-0.52116,	 0.31101
	-0.51513,	 0.32852
	-0.50874,	 0.34573
	-0.50199,	 0.36262
	-0.4949,	 0.37919
	-0.48749,	 0.39544
	-0.47978,	 0.41136
	-0.47177,	 0.42694
	-0.46349,	 0.44218
	-0.45495,	 0.45707
	-0.44616,	 0.47162
	-0.43714,	 0.48582
	-0.42791,	 0.49967
	-0.41848,	 0.51317
	-0.40887,	 0.52632
	-0.38913,	 0.55157
	-0.36881,	 0.57543
	-0.34801,	 0.59791
	-0.32682,	 0.61905
	-0.30533,	 0.63886
	-0.28362,	 0.65739
	-0.26177,	 0.67468
	-0.23985,	 0.69076
	-0.21791,	 0.70569
	-0.19601,	 0.71949
	-0.1742,	 0.73223
	-0.15254,	 0.74394
	-0.13105,	 0.75468
	-0.10977,	 0.76449
	-0.088737,	 0.77342
	-0.067968,	 0.78151
	-0.047491,	 0.78881
	-0.027323,	 0.79535
	-0.0074798,	 0.80119
	 0.012024,	 0.80636
	 0.03118,	 0.8109
	 0.049979,	 0.81485
	 0.068415,	 0.81824
	 0.086485,	 0.82111
	 0.10418,	 0.82348
	 0.12151,	 0.8254
	 0.13847,	 0.82688
	 0.15506,	 0.82796
	 0.17129,	 0.82867
	 0.18715,	 0.82902
	 0.20266,	 0.82904
	 0.21781,	 0.82875
	 0.23261,	 0.82818
	 0.24707,	 0.82733
	 0.26119,	 0.82624
	 0.27498,	 0.82492
	 0.28845,	 0.82338
	 0.3016,	 0.82165
	 0.31444,	 0.81972
	 0.32697,	 0.81763
	 0.33921,	 0.81537
	 0.35116,	 0.81297
	 0.36282,	 0.81043
	 0.37421,	 0.80776
	 0.38533,	 0.80497
	 0.39618,	 0.80208
	 0.40679,	 0.79909
	 0.41714,	 0.79601
	 0.42725,	 0.79284
	 0.43712,	 0.7896
	 0.44677,	 0.78629
	 0.45619,	 0.78291
	 0.46539,	 0.77947
	 0.47439,	 0.77598
	 0.48318,	 0.77244
	 0.49176,	 0.76886
	 0.50836,	 0.76159
	 0.52422,	 0.75419
	 0.53939,	 0.74669
	 0.5539,	 0.73912
	 0.56778,	 0.73149
	 0.58108,	 0.72383
	 0.59382,	 0.71614
	 0.60604,	 0.70846
	 0.61775,	 0.70077
	 0.629,	 0.69311
	 0.63979,	 0.68546
	 0.65016,	 0.67785
	 0.66013,	 0.67028
	 0.66971,	 0.66275
	 0.67893,	 0.65527
	 0.68781,	 0.64784
	 0.69636,	 0.64046
	 0.70459,	 0.63314
	 0.71253,	 0.62588
	 0.72019,	 0.61868
	 0.72757,	 0.61155
	 0.7347,	 0.60448
	 0.74159,	 0.59747
	 0.74824,	 0.59052
	 0.75466,	 0.58365
	 0.76088,	 0.57683
	 0.76689,	 0.57008
	 0.7727,	 0.5634
	 0.78378,	 0.55022
	 0.79417,	 0.53729
	 0.80392,	 0.52461
	 0.8131,	 0.51217
END
BEGIN
	 50 ,	 0 
	 50 ,	 0 
	 50 ,	 0 
	 50 ,	 0 
	 50 ,	 0 
	 50 ,	 0 
	 50 ,	 0 
	 50 ,	 0 
	 50 ,	 0 
	 50 ,	 0 
	 50 ,	 0 
	 50 ,	 0 
	 50 ,	 0 
	 50 ,	 0 
	 50 ,	 0 
	 50 ,	 0 
	 50 ,	 0 
	 50 ,	 0 
	 50 ,	 0 
	 50 ,	 0 
	 50 ,	 0 
	 50 ,	 0 
	 50 ,	 0 
	 50 ,	 0 
	 50 ,	 0 
	 50 ,	 0 
	 50 ,	 0 
	 50 ,	 0 
	 50 ,	 0 
	 50 ,	 0 
	 50 ,	 0 
	 50 ,	 0 
	 50 ,	 0 
	 50 ,	 0 
	 50 ,	 0 
	 50 ,	 0 
	 50 ,	 0 
	 50 ,	 0 
	 50 ,	 0 
	 50 ,	 0 
	 50 ,	 0 
	 50 ,	 0 
	 50 ,	 0 
	 50 ,	 0 
	 50 ,	 0 
	 50 ,	 0 
	 50 ,	 0 
	 50 ,	 0 
	 50 ,	 0 
	 50 ,	 0 
	 50 ,	 0 
	 50 ,	 0 
	 50 ,	 0 
	 50 ,	 0 
	 50 ,	 0 
	 50 ,	 0 
	 50 ,	 0 
	 50 ,	 0 
	 50 ,	 0 
	 50 ,	 0 
	 50 ,	 0 
	 50 ,	 0 
	 50 ,	 0 
	 50 ,	 0 
	 50 ,	 0 
	 50 ,	 0 
	 50 ,	 0 
	 50 ,	 0 
	 50 ,	 0 
	 50 ,	 0 
	 50 ,	 0 
	 50 ,	 0 
	 50 ,	 0 
	 50 ,	 0 
	 50 ,	 0 
	 50 ,	 0 
	 50 ,	 0 
	 50 ,	 0 
	 50 ,	 0 
	 50 ,	 0 
	 50 ,	 0 
	 50 ,	 0 
	 50 ,	 0 
	 50 ,	 0 
	 50 ,	 0 
	 50 ,	 0 
	 50 ,	 0 
	 50 ,	 0 
	 50 ,	 0 
	 50 ,	 0 
	 50 ,	 0 
	 50 ,	 0 
	 50 ,	 0 
	 50 ,	 0 
	 50 ,	 0 
	 50 ,	 0 
	 50 ,	 0 
	 50 ,	 0 
	 50 ,	 0 
	 50 ,	 0 
	 50 ,	 0 
	 50 ,	 0 
	 50 ,	 0 
	 50 ,	 0 
	 50 ,	 0 
	 50 ,	 0 
	 50 ,	 0 
	 50 ,	 0 
	 50 ,	 0 
	 50 ,	 0 
	 50 ,	 0 
	 50 ,	 0 
	 50 ,	 0 
	 50 ,	 0 
	 50 ,	 0 
	 50 ,	 0 
	 50 ,	 0 
	 50 ,	 0 
	 50 ,	 0 
	 50 ,	 0 
	 50 ,	 0 
	 50 ,	 0 
	 50 ,	 0 
	 50 ,	 0 
	 50 ,	 0 
	 50 ,	 0 
	 50 ,	 0 
	 50 ,	 0 
	 50 ,	 0 
	 50 ,	 0 
	 50 ,	 0 
	 50 ,	 0 
	 50 ,	 0 
	 50 ,	 0 
	 50 ,	 0 
	 50 ,	 0 
	 50 ,	 0 
	 50 ,	 0 
	 50 ,	 0 
	 50 ,	 0 
	 50 ,	 0 
	 50 ,	 0 
	 50 ,	 0 
	 50 ,	 0 
	 50 ,	 0 
	 50 ,	 0 
	 50 ,	 0 
	 50 ,	 0 
	 50 ,	 0 
	 50 ,	 0 
	 50 ,	 0 
	 50 ,	 0 
	 50 ,	 0 
	 50 ,	 0 
	 50 ,	 0 
	 50 ,	 0 
	 50 ,	 0 
	 50 ,	 0 
	 50 ,	 0 
	 50 ,	 0 
	 50 ,	 0 
	 50 ,	 0 
	 50 ,	 0 
	 50 ,	 0 
	 50 ,	 0 
	 50 ,	 0 
	 50 ,	 0 
	 50 ,	 0 
	 50 ,	 0 
	 50 ,	 0 
	 50 ,	 0 
	 50 ,	 0 
	 50 ,	 0 
	 50 ,	 0 
	 50 ,	 0 
	 50 ,	 0 
	 50 ,	 0 
	 50 ,	 0 
	 50 ,	 0 
	 50 ,	 0 
	 50 ,	 0 
	 50 ,	 0 
	 50 ,	 0 
	 50 ,	 0 
	 50 ,	 0 
	 50 ,	 0 
	 50 ,	 0 
	 50 ,	 0 
	 50 ,	 0 
	 50 ,	 0 
	 50 ,	 0 
	 50 ,	 0 
	 50 ,	 0 
	 50 ,	 0 
	 50 ,	 0 
	 50 ,	 0 
	 50 ,	 0 
	 50 ,	 0 
	 50 ,	 0 
	 50 ,	 0 
	 50 ,	 0 
	 50 ,	 0 
	 50 ,	 0 
	 50 ,	 0 
	 50 ,	 0 
	 50 ,	 0 
	 50 ,	 0 
	 50 ,	 0 
	 50 ,	 0 
	 50 ,	 0 
	 50 ,	 0 
	 50 ,	 0 
	 50 ,	 0 
	 50 ,	 0 
	 50 ,	 0 
	 50 ,	 0 
	 50 ,	 0 
	 50 ,	 0 
	 50 ,	 0 
	 50 ,	 0 
	 50 ,	 0 
	 50 ,	 0 
	 50 ,	 0 
	 50 ,	 0 
	 50 ,	 0 
	 50 ,	 0 
	 50 ,	 0 
	 50 ,	 0 
	 50 ,	 0 
	 50 ,	 0 
	 50 ,	 0 
	 50 ,	 0 
	 50 ,	 0 
	 50 ,	 0 
	 50 ,	 0 
	 50 ,	 0 
	 50 ,	 0 
	 50 ,	 0 
	 50 ,	 0 
	 50 ,	 0 
	 50 ,	 0 
	 50 ,	 0 
	 50 ,	 0 
	 50 ,	 0 
	 50 ,	 0 
	 50 ,	 0 
	 50 ,	 0 
	 50 ,	 0 
	 50 ,	 0 
	 50 ,	 0 
	 50 ,	 0 
	 50 ,	 0 
	 50 ,	 0 
	 50 ,	 0 
	 50 ,	 0 
	 50 ,	 0 
	 50 ,	 0 
	 50 ,	 0 
	 50 ,	 0 
	 50 ,	 0 
	 50 ,	 0 
	 50 ,	 0 
	 50 ,	 0 
	 50 ,	 0 
	 50 ,	 0 
	 50 ,	 0 
	 50 ,	 0 
	 50 ,	 0 
	 50 ,	 0 
	 50 ,	 0 
	 50 ,	 0 
	 50 ,	 0 
	 50 ,	 0 
	 50 ,	 0 
	 50 ,	 0 
	 50 ,	 0 
	 50 ,	 0 
	 50 ,	 0 
	 50 ,	 0 
	 50 ,	 0 
	 50 ,	 0 
	 50 ,	 0 
	 50 ,	 0 
	 50 ,	 0 
	 50 ,	 0 
	 50 ,	 0 
	 50 ,	 0 
	 50 ,	 0 
	 50 ,	 0 
	 50 ,	 0 
	 50 ,	 0 
	 50 ,	 0 
	 50 ,	 0 
	 50 ,	 0 
	 50 ,	 0 
	 50 ,	 0 
	 50 ,	 0 
END
