CITIFILE A.01.01
#Momentum: B.10.24.175 (*) 2012.08-HF4 May  3 2013 
#Momentum Date and Time: Sat Oct 18 16:32:33 2014

NAME Momentum.SP

#  mode: MW    reference: S_50

CONSTANT NBR_OF_PORTS 1

CONSTANT NORMALIZATION 1

VAR freq MAG 465

DATA S[1,1] RI
DATA PORTZ[1] RI

VAR_LIST_BEGIN
	 500000000
	 500824652.8
	 501649305.6
	 502473958.3
	 503298611.1
	 504123263.9
	 504947916.7
	 505772569.4
	 506597222.2
	 507421875
	 508246527.8
	 509071180.6
	 509895833.3
	 510720486.1
	 511545138.9
	 512369791.7
	 513194444.4
	 514019097.2
	 514843750
	 515668402.8
	 516493055.6
	 517317708.3
	 518142361.1
	 518967013.9
	 519791666.7
	 520616319.5
	 521440972.2
	 522265625
	 523090277.8
	 523914930.6
	 524739583.3
	 525564236.1
	 526388888.9
	 527213541.7
	 528038194.5
	 528862847.2
	 529687500
	 530512152.8
	 531336805.6
	 532161458.3
	 532986111.1
	 533810763.9
	 534635416.7
	 535460069.5
	 536284722.2
	 537109375
	 537934027.8
	 538758680.6
	 539583333.3
	 540407986.1
	 541232638.9
	 542057291.7
	 542881944.5
	 543706597.2
	 544531250
	 545355902.8
	 546180555.6
	 547005208.4
	 547829861.1
	 548654513.9
	 549479166.7
	 550303819.5
	 551128472.2
	 551953125
	 552777777.8
	 554427083.4
	 556076388.9
	 557725694.5
	 559375000
	 561024305.6
	 562673611.1
	 564322916.7
	 565972222.2
	 567621527.8
	 569270833.3
	 570920138.9
	 572569444.4
	 574218750
	 575868055.5
	 577517361.1
	 579166666.6
	 580815972.2
	 582465277.8
	 584114583.3
	 585763888.9
	 587413194.4
	 589062500
	 590711805.5
	 592361111.1
	 594010416.6
	 595659722.2
	 597309027.7
	 598958333.3
	 600607638.8
	 602256944.4
	 603906249.9
	 605555555.5
	 608854166.6
	 612152777.7
	 615451388.8
	 618749999.9
	 622048611
	 625347222.2
	 628645833.3
	 631944444.4
	 635243055.5
	 638541666.6
	 641840277.7
	 645138888.8
	 648437499.9
	 651736111
	 655034722.1
	 658333333.3
	 661631944.4
	 664930555.5
	 668229166.6
	 671527777.7
	 674826388.8
	 678124999.9
	 681423611
	 684722222.1
	 688020833.2
	 691319444.3
	 694618055.5
	 697916666.6
	 701215277.7
	 704513888.8
	 707812499.9
	 711111111
	 714409722.1
	 717708333.2
	 721006944.3
	 724305555.4
	 727604166.5
	 730902777.7
	 734201388.8
	 737499999.9
	 740798611
	 744097222.1
	 747395833.2
	 750694444.3
	 753993055.4
	 757291666.5
	 760590277.6
	 763888888.8
	 767187499.9
	 770486111
	 773784722.1
	 777083333.2
	 780381944.3
	 783680555.4
	 786979166.5
	 790277777.6
	 796874999.8
	 803472222.1
	 810069444.3
	 816666666.5
	 821614583.2
	 826562499.8
	 831510416.5
	 836458333.2
	 841406249.8
	 846354166.5
	 851302083.2
	 856249999.8
	 861197916.5
	 866145833.2
	 871093749.8
	 876041666.5
	 880989583.2
	 885937499.8
	 890885416.5
	 895833333.1
	 900781249.8
	 905729166.5
	 910677083.1
	 915624999.8
	 920572916.5
	 925520833.1
	 930468749.8
	 935416666.5
	 940364583.1
	 945312499.8
	 950260416.5
	 955208333.1
	 960156249.8
	 965104166.5
	 970052083.1
	 974999999.8
	 977473958.1
	 979947916.4
	 982421874.8
	 984895833.1
	 987369791.4
	 989843749.7
	 992317708
	 994791666.3
	 997265624.7
	 999739583
	 1002213541
	 1004687500
	 1007161458
	 1009635416
	 1012109375
	 1014583333
	 1017057291
	 1019531250
	 1022005208
	 1024479166
	 1026953124
	 1029427083
	 1031901041
	 1034374999
	 1036848958
	 1039322916
	 1041796874
	 1044270833
	 1046744791
	 1049218749
	 1051692708
	 1054166666
	 1055403645
	 1056640624
	 1057877604
	 1059114583
	 1060351562
	 1061588541
	 1062825520
	 1064062500
	 1065299479
	 1066536458
	 1067773437
	 1069010416
	 1070247395
	 1071484375
	 1072721354
	 1073958333
	 1075195312
	 1076432291
	 1077669271
	 1078906250
	 1080143229
	 1081380208
	 1082617187
	 1083854167
	 1085091146
	 1086328125
	 1087565104
	 1088802083
	 1090039062
	 1091276042
	 1092513021
	 1093750000
	 1094986979
	 1096223958
	 1097460937
	 1098697917
	 1099934896
	 1101171875
	 1102408854
	 1103645833
	 1104882812
	 1106119792
	 1107356771
	 1108593750
	 1109830729
	 1111067708
	 1112304687
	 1113541667
	 1114778646
	 1116015625
	 1117252604
	 1118489583
	 1119726562
	 1120963541
	 1122200521
	 1123437500
	 1124674479
	 1125911458
	 1127148437
	 1128385416
	 1129622396
	 1130859375
	 1132096354
	 1133333333
	 1139930555
	 1146527777
	 1153125000
	 1159722222
	 1166319444
	 1172916666
	 1179513889
	 1186111111
	 1192708333
	 1199305555
	 1205902777
	 1212500000
	 1219097222
	 1225694444
	 1232291666
	 1238888889
	 1245486111
	 1252083333
	 1258680555
	 1265277777
	 1271875000
	 1278472222
	 1285069444
	 1291666666
	 1298263888
	 1304861111
	 1311458333
	 1318055555
	 1324652777
	 1331250000
	 1337847222
	 1344444444
	 1348842592
	 1353240740
	 1357638888
	 1362037037
	 1366435185
	 1370833333
	 1375231481
	 1379629629
	 1384027777
	 1388425926
	 1392824074
	 1397222222
	 1401620370
	 1406018518
	 1410416666
	 1414814815
	 1419212963
	 1423611111
	 1428009259
	 1432407407
	 1436805555
	 1441203703
	 1445601852
	 1450000000
	 1454398148
	 1458796296
	 1463194444
	 1467592592
	 1471990741
	 1476388889
	 1480787037
	 1485185185
	 1493981481
	 1502777778
	 1511574074
	 1520370370
	 1529166667
	 1537962963
	 1546759259
	 1555555556
	 1564351852
	 1573148148
	 1581944444
	 1590740741
	 1599537037
	 1608333333
	 1617129630
	 1625925926
	 1634722222
	 1643518519
	 1652314815
	 1661111111
	 1669907408
	 1678703704
	 1687500000
	 1696296297
	 1705092593
	 1713888889
	 1722685185
	 1731481482
	 1740277778
	 1749074074
	 1757870371
	 1766666667
	 1771614584
	 1776562500
	 1781510417
	 1786458334
	 1791406250
	 1796354167
	 1801302084
	 1806250000
	 1811197917
	 1816145834
	 1821093750
	 1826041667
	 1830989584
	 1835937500
	 1840885417
	 1845833334
	 1855729167
	 1865625000
	 1875520833
	 1885416667
	 1895312500
	 1905208333
	 1915104167
	 1925000000
	 1934895833
	 1944791667
	 1954687500
	 1964583334
	 1974479167
	 1984375000
	 1994270834
	 2004166667
	 2014062500
	 2023958334
	 2033854167
	 2043750001
	 2053645834
	 2063541667
	 2073437501
	 2083333334
	 2089930556
	 2096527778
	 2103125001
	 2109722223
	 2116319445
	 2122916667
	 2129513890
	 2136111112
	 2142708334
	 2149305556
	 2155902778
	 2162500001
	 2169097223
	 2175694445
	 2182291667
	 2188888890
	 2202083334
	 2215277778
	 2228472223
	 2241666667
	 2248263889
	 2254861112
	 2261458334
	 2268055556
	 2274652778
	 2281250001
	 2287847223
	 2294444445
	 2301041667
	 2307638889
	 2314236112
	 2320833334
	 2327430556
	 2334027778
	 2340625000
	 2347222223
	 2353819445
	 2360416667
	 2367013889
	 2373611111
	 2380208333
	 2386805556
	 2393402778
	 2400000000
VAR_LIST_END

BEGIN
	 0.40105,	-0.83031
	 0.39435,	-0.83211
	 0.38755,	-0.83387
	 0.38066,	-0.83558
	 0.37368,	-0.83726
	 0.36659,	-0.83888
	 0.35941,	-0.84046
	 0.35213,	-0.84199
	 0.34474,	-0.84347
	 0.33725,	-0.84489
	 0.32966,	-0.84625
	 0.32196,	-0.84755
	 0.31416,	-0.84879
	 0.30624,	-0.84996
	 0.29822,	-0.85107
	 0.29008,	-0.8521
	 0.28184,	-0.85306
	 0.27348,	-0.85394
	 0.26501,	-0.85474
	 0.25642,	-0.85545
	 0.24772,	-0.85608
	 0.2389,	-0.85661
	 0.22996,	-0.85705
	 0.22091,	-0.85738
	 0.21173,	-0.85762
	 0.20244,	-0.85774
	 0.19302,	-0.85776
	 0.18348,	-0.85765
	 0.17382,	-0.85743
	 0.16404,	-0.85708
	 0.15414,	-0.8566
	 0.14411,	-0.85598
	 0.13397,	-0.85523
	 0.1237,	-0.85432
	 0.1133,	-0.85327
	 0.10279,	-0.85206
	 0.092158,	-0.85068
	 0.081401,	-0.84914
	 0.070525,	-0.84742
	 0.05953,	-0.84553
	 0.048418,	-0.84344
	 0.03719,	-0.84116
	 0.025848,	-0.83868
	 0.014393,	-0.836
	 0.0028289,	-0.8331
	-0.0088432,	-0.82998
	-0.02062,	-0.82663
	-0.032499,	-0.82305
	-0.044476,	-0.81922
	-0.056548,	-0.81515
	-0.068711,	-0.81082
	-0.08096,	-0.80622
	-0.093291,	-0.80135
	-0.10569,	-0.7962
	-0.11817,	-0.79077
	-0.13072,	-0.78503
	-0.14332,	-0.779
	-0.15597,	-0.77265
	-0.16867,	-0.76599
	-0.18141,	-0.75899
	-0.19418,	-0.75167
	-0.20696,	-0.744
	-0.21976,	-0.73598
	-0.23255,	-0.72761
	-0.24534,	-0.71887
	-0.27084,	-0.70028
	-0.29617,	-0.68016
	-0.32122,	-0.65845
	-0.34588,	-0.63513
	-0.37003,	-0.61016
	-0.39354,	-0.58352
	-0.41628,	-0.55519
	-0.43811,	-0.52518
	-0.45886,	-0.49351
	-0.4784,	-0.46019
	-0.49655,	-0.42528
	-0.51318,	-0.38883
	-0.52812,	-0.35094
	-0.54122,	-0.3117
	-0.55233,	-0.27123
	-0.56132,	-0.22966
	-0.56807,	-0.18715
	-0.57246,	-0.14388
	-0.5744,	-0.10002
	-0.57382,	-0.055786
	-0.57067,	-0.011374
	-0.56491,	 0.032993
	-0.55656,	 0.077097
	-0.54562,	 0.12071
	-0.53214,	 0.16363
	-0.5162,	 0.20563
	-0.49788,	 0.24651
	-0.47731,	 0.28609
	-0.45461,	 0.32419
	-0.42994,	 0.36066
	-0.40345,	 0.39536
	-0.37533,	 0.42817
	-0.31493,	 0.48779
	-0.25021,	 0.53904
	-0.18266,	 0.58175
	-0.11365,	 0.61607
	-0.044432,	 0.64237
	 0.023966,	 0.66118
	 0.090683,	 0.67319
	 0.15505,	 0.67911
	 0.2166,	 0.67968
	 0.275,	 0.67565
	 0.33006,	 0.6677
	 0.38169,	 0.65646
	 0.42989,	 0.64253
	 0.47473,	 0.6264
	 0.51631,	 0.60853
	 0.55478,	 0.5893
	 0.59031,	 0.56903
	 0.62307,	 0.54802
	 0.65323,	 0.52648
	 0.68098,	 0.50462
	 0.70649,	 0.48258
	 0.72992,	 0.46051
	 0.75144,	 0.43851
	 0.77119,	 0.41665
	 0.78931,	 0.39501
	 0.80594,	 0.37364
	 0.82119,	 0.35257
	 0.83516,	 0.33183
	 0.84797,	 0.31144
	 0.8597,	 0.29143
	 0.87044,	 0.27179
	 0.88027,	 0.25252
	 0.88925,	 0.23363
	 0.89745,	 0.21512
	 0.90492,	 0.19697
	 0.91173,	 0.17918
	 0.91793,	 0.16175
	 0.92354,	 0.14465
	 0.92862,	 0.12788
	 0.9332,	 0.11143
	 0.93731,	 0.095297
	 0.94099,	 0.079449
	 0.94426,	 0.063883
	 0.94715,	 0.048587
	 0.94968,	 0.033549
	 0.95187,	 0.018756
	 0.95373,	 0.0041969
	 0.95529,	-0.01014
	 0.95657,	-0.024266
	 0.95756,	-0.038192
	 0.9583,	-0.051929
	 0.95878,	-0.065488
	 0.95902,	-0.078879
	 0.95903,	-0.092112
	 0.95882,	-0.10519
	 0.95838,	-0.11814
	 0.95689,	-0.14365
	 0.95458,	-0.16871
	 0.95149,	-0.19339
	 0.94764,	-0.21774
	 0.94425,	-0.23584
	 0.94044,	-0.25381
	 0.93619,	-0.27167
	 0.9315,	-0.28946
	 0.92636,	-0.3072
	 0.92076,	-0.32489
	 0.91468,	-0.34256
	 0.90811,	-0.36023
	 0.90102,	-0.37792
	 0.89338,	-0.39563
	 0.88517,	-0.41339
	 0.87635,	-0.43121
	 0.86689,	-0.44911
	 0.85674,	-0.46708
	 0.84586,	-0.48514
	 0.83419,	-0.50329
	 0.82168,	-0.52154
	 0.80826,	-0.53988
	 0.79386,	-0.55831
	 0.7784,	-0.57682
	 0.76179,	-0.59539
	 0.74394,	-0.614
	 0.72474,	-0.63261
	 0.70407,	-0.65118
	 0.68181,	-0.66964
	 0.65781,	-0.68793
	 0.63193,	-0.70595
	 0.60399,	-0.72357
	 0.57384,	-0.74065
	 0.54128,	-0.75699
	 0.50611,	-0.77238
	 0.46815,	-0.78654
	 0.44805,	-0.79304
	 0.42719,	-0.79911
	 0.40553,	-0.80468
	 0.38306,	-0.80969
	 0.35975,	-0.81409
	 0.33559,	-0.81779
	 0.31057,	-0.82073
	 0.28468,	-0.82282
	 0.2579,	-0.82398
	 0.23026,	-0.8241
	 0.20174,	-0.82308
	 0.17237,	-0.82082
	 0.14218,	-0.8172
	 0.11121,	-0.81208
	 0.079503,	-0.80536
	 0.047127,	-0.79688
	 0.014166,	-0.78652
	-0.019278,	-0.77414
	-0.053084,	-0.75959
	-0.087106,	-0.74275
	-0.12117,	-0.72348
	-0.1551,	-0.70166
	-0.18867,	-0.67718
	-0.22164,	-0.64996
	-0.25373,	-0.61992
	-0.28466,	-0.58704
	-0.31412,	-0.5513
	-0.34178,	-0.51275
	-0.36731,	-0.47146
	-0.39036,	-0.42756
	-0.4106,	-0.38123
	-0.42771,	-0.33269
	-0.43499,	-0.30768
	-0.44138,	-0.28223
	-0.44684,	-0.25639
	-0.45135,	-0.23019
	-0.45487,	-0.20368
	-0.45739,	-0.17692
	-0.45888,	-0.14996
	-0.45933,	-0.12286
	-0.45872,	-0.09567
	-0.45705,	-0.068443
	-0.45431,	-0.041241
	-0.4505,	-0.014123
	-0.44562,	 0.012852
	-0.43969,	 0.039626
	-0.43271,	 0.066141
	-0.4247,	 0.092342
	-0.41568,	 0.11817
	-0.40568,	 0.14357
	-0.39473,	 0.16851
	-0.38285,	 0.19291
	-0.37008,	 0.21675
	-0.35645,	 0.23998
	-0.34202,	 0.26255
	-0.32681,	 0.28444
	-0.31088,	 0.30561
	-0.29427,	 0.32602
	-0.27702,	 0.34566
	-0.25919,	 0.36449
	-0.24082,	 0.38251
	-0.22197,	 0.3997
	-0.20267,	 0.41604
	-0.18298,	 0.43153
	-0.16295,	 0.44617
	-0.14262,	 0.45994
	-0.12204,	 0.47286
	-0.10126,	 0.48492
	-0.080315,	 0.49614
	-0.059244,	 0.50652
	-0.038091,	 0.51608
	-0.016895,	 0.52483
	 0.00431,	 0.53277
	 0.025488,	 0.53994
	 0.046608,	 0.54635
	 0.067639,	 0.55201
	 0.088554,	 0.55695
	 0.10932,	 0.56119
	 0.12992,	 0.56475
	 0.15034,	 0.56766
	 0.17055,	 0.56993
	 0.19052,	 0.5716
	 0.21025,	 0.57268
	 0.22973,	 0.57319
	 0.24893,	 0.57316
	 0.26784,	 0.57262
	 0.28646,	 0.57158
	 0.30477,	 0.57007
	 0.32277,	 0.56811
	 0.34045,	 0.56572
	 0.35781,	 0.56292
	 0.37484,	 0.55974
	 0.39154,	 0.55619
	 0.40791,	 0.55229
	 0.42394,	 0.54806
	 0.43964,	 0.54352
	 0.51771,	 0.51474
	 0.58655,	 0.47987
	 0.64672,	 0.44075
	 0.69896,	 0.39876
	 0.74401,	 0.35495
	 0.78261,	 0.31004
	 0.81545,	 0.26456
	 0.84309,	 0.21886
	 0.86607,	 0.17317
	 0.88479,	 0.12761
	 0.89961,	 0.082272
	 0.91077,	 0.037165
	 0.91847,	-0.0077067
	 0.92282,	-0.052359
	 0.92389,	-0.096812
	 0.92167,	-0.14107
	 0.91609,	-0.18514
	 0.90703,	-0.22897
	 0.8943,	-0.2725
	 0.87769,	-0.31558
	 0.85693,	-0.358
	 0.83169,	-0.39945
	 0.80167,	-0.43953
	 0.76654,	-0.47766
	 0.72603,	-0.51314
	 0.67994,	-0.54505
	 0.62826,	-0.57231
	 0.57118,	-0.59367
	 0.50923,	-0.60774
	 0.44334,	-0.61311
	 0.37492,	-0.60844
	 0.30587,	-0.59267
	 0.26063,	-0.57568
	 0.21691,	-0.55347
	 0.17551,	-0.52617
	 0.13723,	-0.49407
	 0.10279,	-0.45764
	 0.072842,	-0.41747
	 0.047898,	-0.3743
	 0.028319,	-0.32894
	 0.014293,	-0.28226
	 0.005832,	-0.2351
	 0.002787,	-0.1883
	 0.0048639,	-0.1426
	 0.011655,	-0.098656
	 0.022669,	-0.056977
	 0.037368,	-0.017977
	 0.055189,	 0.018059
	 0.07558,	 0.050958
	 0.098009,	 0.080644
	 0.12198,	 0.10712
	 0.14707,	 0.13046
	 0.17287,	 0.15079
	 0.19906,	 0.16825
	 0.22534,	 0.18303
	 0.25149,	 0.19533
	 0.27732,	 0.20532
	 0.30267,	 0.21322
	 0.32742,	 0.21921
	 0.35149,	 0.22347
	 0.37482,	 0.22616
	 0.39736,	 0.22746
	 0.41907,	 0.22749
	 0.43996,	 0.2264
	 0.47924,	 0.22131
	 0.51525,	 0.21303
	 0.54812,	 0.2022
	 0.57805,	 0.18938
	 0.60522,	 0.17497
	 0.62982,	 0.15932
	 0.65204,	 0.14269
	 0.67204,	 0.12529
	 0.68998,	 0.10728
	 0.70597,	 0.088815
	 0.72014,	 0.069989
	 0.73258,	 0.050905
	 0.74338,	 0.031647
	 0.75261,	 0.012291
	 0.76033,	-0.007091
	 0.7666,	-0.02643
	 0.77146,	-0.045659
	 0.77496,	-0.06471
	 0.77716,	-0.083514
	 0.77809,	-0.102
	 0.77781,	-0.1201
	 0.77636,	-0.13775
	 0.77381,	-0.15489
	 0.77021,	-0.17144
	 0.76563,	-0.18735
	 0.76015,	-0.20257
	 0.75383,	-0.21704
	 0.74676,	-0.23073
	 0.73901,	-0.24361
	 0.73067,	-0.25563
	 0.72182,	-0.2668
	 0.71254,	-0.27709
	 0.70716,	-0.28249
	 0.70169,	-0.28762
	 0.69613,	-0.29247
	 0.6905,	-0.29705
	 0.68481,	-0.30136
	 0.67908,	-0.3054
	 0.67332,	-0.30917
	 0.66754,	-0.31268
	 0.66174,	-0.31594
	 0.65595,	-0.31894
	 0.65017,	-0.32169
	 0.64441,	-0.3242
	 0.63868,	-0.32648
	 0.63299,	-0.32852
	 0.62734,	-0.33034
	 0.62175,	-0.33194
	 0.61078,	-0.33451
	 0.60011,	-0.33628
	 0.58982,	-0.3373
	 0.57993,	-0.33763
	 0.5705,	-0.33733
	 0.56156,	-0.33645
	 0.55314,	-0.33506
	 0.54528,	-0.33321
	 0.53799,	-0.33097
	 0.5313,	-0.3284
	 0.52522,	-0.32557
	 0.51976,	-0.32253
	 0.51492,	-0.31936
	 0.5107,	-0.31612
	 0.50709,	-0.31288
	 0.50408,	-0.3097
	 0.50164,	-0.30664
	 0.49975,	-0.30376
	 0.49837,	-0.30112
	 0.49747,	-0.29877
	 0.497,	-0.29676
	 0.49692,	-0.29513
	 0.49718,	-0.29391
	 0.49771,	-0.29314
	 0.4982,	-0.29289
	 0.49877,	-0.29285
	 0.4994,	-0.29303
	 0.50009,	-0.29343
	 0.5008,	-0.29406
	 0.50154,	-0.29492
	 0.50227,	-0.296
	 0.50299,	-0.2973
	 0.50368,	-0.29883
	 0.50431,	-0.30058
	 0.50489,	-0.30254
	 0.50538,	-0.30472
	 0.50579,	-0.3071
	 0.50609,	-0.30968
	 0.50627,	-0.31245
	 0.50633,	-0.31541
	 0.506,	-0.32186
	 0.50501,	-0.32896
	 0.5033,	-0.33663
	 0.50079,	-0.34481
	 0.49921,	-0.34906
	 0.49741,	-0.35341
	 0.49538,	-0.35784
	 0.49311,	-0.36235
	 0.4906,	-0.36693
	 0.48784,	-0.37155
	 0.48482,	-0.37623
	 0.48155,	-0.38093
	 0.47801,	-0.38566
	 0.4742,	-0.39039
	 0.47012,	-0.39513
	 0.46576,	-0.39985
	 0.46111,	-0.40454
	 0.45618,	-0.4092
	 0.45096,	-0.4138
	 0.44545,	-0.41834
	 0.43964,	-0.4228
	 0.43353,	-0.42717
	 0.42712,	-0.43143
	 0.4204,	-0.43557
	 0.41338,	-0.43958
	 0.40606,	-0.44343
	 0.39842,	-0.44711
	 0.39049,	-0.45061
END
BEGIN
	 50 ,	 0 
	 50 ,	 0 
	 50 ,	 0 
	 50 ,	 0 
	 50 ,	 0 
	 50 ,	 0 
	 50 ,	 0 
	 50 ,	 0 
	 50 ,	 0 
	 50 ,	 0 
	 50 ,	 0 
	 50 ,	 0 
	 50 ,	 0 
	 50 ,	 0 
	 50 ,	 0 
	 50 ,	 0 
	 50 ,	 0 
	 50 ,	 0 
	 50 ,	 0 
	 50 ,	 0 
	 50 ,	 0 
	 50 ,	 0 
	 50 ,	 0 
	 50 ,	 0 
	 50 ,	 0 
	 50 ,	 0 
	 50 ,	 0 
	 50 ,	 0 
	 50 ,	 0 
	 50 ,	 0 
	 50 ,	 0 
	 50 ,	 0 
	 50 ,	 0 
	 50 ,	 0 
	 50 ,	 0 
	 50 ,	 0 
	 50 ,	 0 
	 50 ,	 0 
	 50 ,	 0 
	 50 ,	 0 
	 50 ,	 0 
	 50 ,	 0 
	 50 ,	 0 
	 50 ,	 0 
	 50 ,	 0 
	 50 ,	 0 
	 50 ,	 0 
	 50 ,	 0 
	 50 ,	 0 
	 50 ,	 0 
	 50 ,	 0 
	 50 ,	 0 
	 50 ,	 0 
	 50 ,	 0 
	 50 ,	 0 
	 50 ,	 0 
	 50 ,	 0 
	 50 ,	 0 
	 50 ,	 0 
	 50 ,	 0 
	 50 ,	 0 
	 50 ,	 0 
	 50 ,	 0 
	 50 ,	 0 
	 50 ,	 0 
	 50 ,	 0 
	 50 ,	 0 
	 50 ,	 0 
	 50 ,	 0 
	 50 ,	 0 
	 50 ,	 0 
	 50 ,	 0 
	 50 ,	 0 
	 50 ,	 0 
	 50 ,	 0 
	 50 ,	 0 
	 50 ,	 0 
	 50 ,	 0 
	 50 ,	 0 
	 50 ,	 0 
	 50 ,	 0 
	 50 ,	 0 
	 50 ,	 0 
	 50 ,	 0 
	 50 ,	 0 
	 50 ,	 0 
	 50 ,	 0 
	 50 ,	 0 
	 50 ,	 0 
	 50 ,	 0 
	 50 ,	 0 
	 50 ,	 0 
	 50 ,	 0 
	 50 ,	 0 
	 50 ,	 0 
	 50 ,	 0 
	 50 ,	 0 
	 50 ,	 0 
	 50 ,	 0 
	 50 ,	 0 
	 50 ,	 0 
	 50 ,	 0 
	 50 ,	 0 
	 50 ,	 0 
	 50 ,	 0 
	 50 ,	 0 
	 50 ,	 0 
	 50 ,	 0 
	 50 ,	 0 
	 50 ,	 0 
	 50 ,	 0 
	 50 ,	 0 
	 50 ,	 0 
	 50 ,	 0 
	 50 ,	 0 
	 50 ,	 0 
	 50 ,	 0 
	 50 ,	 0 
	 50 ,	 0 
	 50 ,	 0 
	 50 ,	 0 
	 50 ,	 0 
	 50 ,	 0 
	 50 ,	 0 
	 50 ,	 0 
	 50 ,	 0 
	 50 ,	 0 
	 50 ,	 0 
	 50 ,	 0 
	 50 ,	 0 
	 50 ,	 0 
	 50 ,	 0 
	 50 ,	 0 
	 50 ,	 0 
	 50 ,	 0 
	 50 ,	 0 
	 50 ,	 0 
	 50 ,	 0 
	 50 ,	 0 
	 50 ,	 0 
	 50 ,	 0 
	 50 ,	 0 
	 50 ,	 0 
	 50 ,	 0 
	 50 ,	 0 
	 50 ,	 0 
	 50 ,	 0 
	 50 ,	 0 
	 50 ,	 0 
	 50 ,	 0 
	 50 ,	 0 
	 50 ,	 0 
	 50 ,	 0 
	 50 ,	 0 
	 50 ,	 0 
	 50 ,	 0 
	 50 ,	 0 
	 50 ,	 0 
	 50 ,	 0 
	 50 ,	 0 
	 50 ,	 0 
	 50 ,	 0 
	 50 ,	 0 
	 50 ,	 0 
	 50 ,	 0 
	 50 ,	 0 
	 50 ,	 0 
	 50 ,	 0 
	 50 ,	 0 
	 50 ,	 0 
	 50 ,	 0 
	 50 ,	 0 
	 50 ,	 0 
	 50 ,	 0 
	 50 ,	 0 
	 50 ,	 0 
	 50 ,	 0 
	 50 ,	 0 
	 50 ,	 0 
	 50 ,	 0 
	 50 ,	 0 
	 50 ,	 0 
	 50 ,	 0 
	 50 ,	 0 
	 50 ,	 0 
	 50 ,	 0 
	 50 ,	 0 
	 50 ,	 0 
	 50 ,	 0 
	 50 ,	 0 
	 50 ,	 0 
	 50 ,	 0 
	 50 ,	 0 
	 50 ,	 0 
	 50 ,	 0 
	 50 ,	 0 
	 50 ,	 0 
	 50 ,	 0 
	 50 ,	 0 
	 50 ,	 0 
	 50 ,	 0 
	 50 ,	 0 
	 50 ,	 0 
	 50 ,	 0 
	 50 ,	 0 
	 50 ,	 0 
	 50 ,	 0 
	 50 ,	 0 
	 50 ,	 0 
	 50 ,	 0 
	 50 ,	 0 
	 50 ,	 0 
	 50 ,	 0 
	 50 ,	 0 
	 50 ,	 0 
	 50 ,	 0 
	 50 ,	 0 
	 50 ,	 0 
	 50 ,	 0 
	 50 ,	 0 
	 50 ,	 0 
	 50 ,	 0 
	 50 ,	 0 
	 50 ,	 0 
	 50 ,	 0 
	 50 ,	 0 
	 50 ,	 0 
	 50 ,	 0 
	 50 ,	 0 
	 50 ,	 0 
	 50 ,	 0 
	 50 ,	 0 
	 50 ,	 0 
	 50 ,	 0 
	 50 ,	 0 
	 50 ,	 0 
	 50 ,	 0 
	 50 ,	 0 
	 50 ,	 0 
	 50 ,	 0 
	 50 ,	 0 
	 50 ,	 0 
	 50 ,	 0 
	 50 ,	 0 
	 50 ,	 0 
	 50 ,	 0 
	 50 ,	 0 
	 50 ,	 0 
	 50 ,	 0 
	 50 ,	 0 
	 50 ,	 0 
	 50 ,	 0 
	 50 ,	 0 
	 50 ,	 0 
	 50 ,	 0 
	 50 ,	 0 
	 50 ,	 0 
	 50 ,	 0 
	 50 ,	 0 
	 50 ,	 0 
	 50 ,	 0 
	 50 ,	 0 
	 50 ,	 0 
	 50 ,	 0 
	 50 ,	 0 
	 50 ,	 0 
	 50 ,	 0 
	 50 ,	 0 
	 50 ,	 0 
	 50 ,	 0 
	 50 ,	 0 
	 50 ,	 0 
	 50 ,	 0 
	 50 ,	 0 
	 50 ,	 0 
	 50 ,	 0 
	 50 ,	 0 
	 50 ,	 0 
	 50 ,	 0 
	 50 ,	 0 
	 50 ,	 0 
	 50 ,	 0 
	 50 ,	 0 
	 50 ,	 0 
	 50 ,	 0 
	 50 ,	 0 
	 50 ,	 0 
	 50 ,	 0 
	 50 ,	 0 
	 50 ,	 0 
	 50 ,	 0 
	 50 ,	 0 
	 50 ,	 0 
	 50 ,	 0 
	 50 ,	 0 
	 50 ,	 0 
	 50 ,	 0 
	 50 ,	 0 
	 50 ,	 0 
	 50 ,	 0 
	 50 ,	 0 
	 50 ,	 0 
	 50 ,	 0 
	 50 ,	 0 
	 50 ,	 0 
	 50 ,	 0 
	 50 ,	 0 
	 50 ,	 0 
	 50 ,	 0 
	 50 ,	 0 
	 50 ,	 0 
	 50 ,	 0 
	 50 ,	 0 
	 50 ,	 0 
	 50 ,	 0 
	 50 ,	 0 
	 50 ,	 0 
	 50 ,	 0 
	 50 ,	 0 
	 50 ,	 0 
	 50 ,	 0 
	 50 ,	 0 
	 50 ,	 0 
	 50 ,	 0 
	 50 ,	 0 
	 50 ,	 0 
	 50 ,	 0 
	 50 ,	 0 
	 50 ,	 0 
	 50 ,	 0 
	 50 ,	 0 
	 50 ,	 0 
	 50 ,	 0 
	 50 ,	 0 
	 50 ,	 0 
	 50 ,	 0 
	 50 ,	 0 
	 50 ,	 0 
	 50 ,	 0 
	 50 ,	 0 
	 50 ,	 0 
	 50 ,	 0 
	 50 ,	 0 
	 50 ,	 0 
	 50 ,	 0 
	 50 ,	 0 
	 50 ,	 0 
	 50 ,	 0 
	 50 ,	 0 
	 50 ,	 0 
	 50 ,	 0 
	 50 ,	 0 
	 50 ,	 0 
	 50 ,	 0 
	 50 ,	 0 
	 50 ,	 0 
	 50 ,	 0 
	 50 ,	 0 
	 50 ,	 0 
	 50 ,	 0 
	 50 ,	 0 
	 50 ,	 0 
	 50 ,	 0 
	 50 ,	 0 
	 50 ,	 0 
	 50 ,	 0 
	 50 ,	 0 
	 50 ,	 0 
	 50 ,	 0 
	 50 ,	 0 
	 50 ,	 0 
	 50 ,	 0 
	 50 ,	 0 
	 50 ,	 0 
	 50 ,	 0 
	 50 ,	 0 
	 50 ,	 0 
	 50 ,	 0 
	 50 ,	 0 
